
T0F78 000:000 SEGGER J-Link V4.96a Log File (0001ms, 0001ms total)
T0F78 000:000 DLL Compiled: Jan 14 2015 09:32:38 (0001ms, 0001ms total)
T0F78 000:000 Logging started @ 2019-08-31 21:59 (0001ms, 0001ms total)
T0F78 000:001 JLINK_SetWarnOutHandler(...) (0000ms, 0001ms total)
T0F78 000:001 JLINK_OpenEx(...)
Firmware: J-Link OB-STM32F072-CortexM compiled Mar  8 2020 11:15:54
Hardware: V1.00
Feature(s): GDB, RDI, FlashBP, FlashDL, JFlash, RDDI  returns O.K. (0266ms, 0267ms total)
T0F78 000:267 JLINK_GetEmuCaps()  returns 0xB8EA5A33 (0000ms, 0267ms total)
T0F78 000:267 JLINK_TIF_GetAvailable(...) (0000ms, 0267ms total)
T0F78 000:267 JLINK_SetErrorOutHandler(...) (0000ms, 0267ms total)
T0F78 000:267 JLINK_ExecCommand("ProjectFile = "C:\Users\PC\Desktop\remote_controler\Ò£¿ØÊÖ±ú\Ò£¿ØÊÖ±úcode(version_3)\USER\JLinkSettings.ini"", ...)  returns 0x00 (0002ms, 0269ms total)
T0F78 000:271 JLINK_ExecCommand("Device = STM32F103C8", ...)Device "STM32F103C8" selected.  returns 0x00 (0009ms, 0278ms total)
T0F78 000:280 JLINK_ExecCommand("DisableConnectionTimeout", ...)  returns 0x01 (0000ms, 0278ms total)
T0F78 000:280 JLINK_GetHardwareVersion()  returns 0x2710 (0000ms, 0278ms total)
T0F78 000:280 JLINK_GetDLLVersion()  returns 49601 (0000ms, 0278ms total)
T0F78 000:280 JLINK_GetFirmwareString(...) (0000ms, 0278ms total)
T0F78 000:294 JLINK_GetDLLVersion()  returns 49601 (0000ms, 0278ms total)
T0F78 000:294 JLINK_GetCompileDateTime() (0000ms, 0278ms total)
T0F78 000:298 JLINK_GetFirmwareString(...) (0000ms, 0278ms total)
T0F78 000:302 JLINK_GetHardwareVersion()  returns 0x2710 (0000ms, 0278ms total)
T0F78 000:309 JLINK_TIF_Select(JLINKARM_TIF_SWD)  returns 0x00 (0001ms, 0279ms total)
T0F78 000:310 JLINK_SetSpeed(5000) (0000ms, 0279ms total)
T0F78 000:310 JLINK_GetId() >0x108 TIF>Found SWD-DP with ID 0x1BA01477 >0x0D TIF> >0x28 TIF> >0x0D TIF> >0x28 TIF> >0x0D TIF> >0x21 TIF> >0x0D TIF> >0x28 TIF> >0x0D TIF> >0x28 TIF> >0x0D TIF> >0x28 TIF> >0x0D TIF> >0x21 TIF> >0x0D TIF> >0x21 TIF> >0x0D TIF> >0x28 TIF> >0x0D TIF> >0x21 TIF> >0x0D TIF> >0x21 TIF> >0x108 TIF>Found SWD-DP with ID 0x1BA01477 >0x0D TIF> >0x21 TIF> >0x0D TIF> >0x28 TIF> >0x0D TIF> >0x28 TIF> >0x0D TIF> >0x21 TIF> >0x0D TIF> >0x28 TIF> >0x0D TIF> >0x21 TIF> >0x0D TIF> >0x21 TIF>
 >0x0D TIF> >0x21 TIF> >0x0D TIF> >0x21 TIF> >0x0D TIF> >0x28 TIF> >0x0D TIF> >0x28 TIF> >0x0D TIF> >0x21 TIF> >0x0D TIF> >0x28 TIF> >0x0D TIF> >0x28 TIF> >0x0D TIF> >0x28 TIF> >0x0D TIF> >0x21 TIF> >0x0D TIF> >0x21 TIF> >0x0D TIF> >0x28 TIF> >0x0D TIF> >0x21 TIF> >0x0D TIF> >0x21 TIF>Found Cortex-M3 r1p1, Little endian. -- CPU_WriteMem(4 bytes @ 0xE0002000) -- CPU_ReadMem(4 bytes @ 0xE000EDF0) -- CPU_ReadMem(4 bytes @ 0xE0002000)FPUnit: 6 code (BP) slots and 2 literal slots
 -- CPU_ReadMem(4 bytes @ 0xE000EDFC) -- CPU_ReadMem(4 bytes @ 0xE0001000) -- CPU_WriteMem(4 bytes @ 0xE0001000) -- CPU_ReadMem(4 bytes @ 0xE000ED88) -- CPU_WriteMem(4 bytes @ 0xE000ED88) -- CPU_ReadMem(4 bytes @ 0xE000ED88) -- CPU_WriteMem(4 bytes @ 0xE000ED88) -- CPU_ReadMem(4 bytes @ 0xE00FF010)TPIU fitted. -- CPU_ReadMem(4 bytes @ 0xE00FF014) -- CPU_ReadMem(4 bytes @ 0xE00FF018) >0x0D TIF> >0x21 TIF>  returns 0x1BA01477 (0037ms, 0316ms total)
T0F78 000:347 JLINK_GetDLLVersion()  returns 49601 (0000ms, 0316ms total)
T0F78 000:347 JLINK_CORE_GetFound()  returns 0x30000FF (0000ms, 0316ms total)
T0F78 000:347 JLINK_GetDebugInfo(0x100) -- Value=0xE00FF003  returns 0x00 (0000ms, 0316ms total)
T0F78 000:350 JLINK_GetDebugInfo(0x100) -- Value=0xE00FF003  returns 0x00 (0000ms, 0316ms total)
T0F78 000:350 JLINK_GetDebugInfo(0x101)  returns 0xFFFFFFFF (0000ms, 0316ms total)
T0F78 000:350 JLINK_ReadMemEx(0xE0041FF0, 0x0010 Bytes, ..., AccessWidth = 33554436) -- CPU is running -- CPU_ReadMem(16 bytes @ 0xE0041FF0) - Data: 00 00 00 00 00 00 00 00 00 00 00 00 00 00 00 00  returns 0x10 (0000ms, 0316ms total)
T0F78 000:350 JLINK_GetDebugInfo(0x102)  returns 0xFFFFFFFF (0000ms, 0316ms total)
T0F78 000:350 JLINK_GetDebugInfo(0x103)  returns 0xFFFFFFFF (0000ms, 0316ms total)
T0F78 000:350 JLINK_ReadMemEx(0xE0040FF0, 0x0010 Bytes, ..., AccessWidth = 33554436) -- CPU is running -- CPU_ReadMem(16 bytes @ 0xE0040FF0) - Data: 0D 00 00 00 90 00 00 00 05 00 00 00 B1 00 00 00  returns 0x10 (0001ms, 0317ms total)
T0F78 000:351 JLINK_GetDebugInfo(0x104)  returns 0xFFFFFFFF (0000ms, 0317ms total)
T0F78 000:351 JLINK_GetDebugInfo(0x105)  returns 0xFFFFFFFF (0000ms, 0317ms total)
T0F78 000:351 JLINK_GetDebugInfo(0x106)  returns 0xFFFFFFFF (0000ms, 0317ms total)
T0F78 000:351 JLINK_GetDebugInfo(0x107)  returns 0xFFFFFFFF (0000ms, 0317ms total)
T0F78 000:351 JLINK_GetDebugInfo(0x10C)  returns 0xFFFFFFFF (0000ms, 0317ms total)
T0F78 000:351 JLINK_ReadMemU32(0xE000ED00, 0x0001 Items, ...) -- CPU is running -- CPU_ReadMem(4 bytes @ 0xE000ED00) - Data: 31 C2 1F 41  returns 0x01 (0000ms, 0317ms total)
T0F78 000:351 JLINK_GetDebugInfo(0x10F)  returns 0xFFFFFFFF (0000ms, 0317ms total)
T0F78 000:352 JLINK_SetResetType(JLINKARM_RESET_TYPE_NORMAL)  returns JLINKARM_RESET_TYPE_NORMAL (0000ms, 0318ms total)
T0F78 000:352 JLINK_Reset() -- CPU is running -- CPU_WriteMem(4 bytes @ 0xE000EDF0) -- CPU is running -- CPU_WriteMem(4 bytes @ 0xE000EDFC) >0x35 TIF> -- CPU is running -- CPU_WriteMem(4 bytes @ 0xE000ED0C) -- CPU is running -- CPU_ReadMem(4 bytes @ 0xE000EDF0) -- CPU is running -- CPU_ReadMem(4 bytes @ 0xE000EDF0) -- CPU is running -- CPU_WriteMem(4 bytes @ 0xE000EDF0) -- CPU is running -- CPU_WriteMem(4 bytes @ 0xE000EDFC) -- CPU is running -- CPU_ReadMem(4 bytes @ 0xE000EDF0)
 -- CPU_WriteMem(4 bytes @ 0xE0002000) -- CPU_ReadMem(4 bytes @ 0xE000EDFC) -- CPU_ReadMem(4 bytes @ 0xE0001000) (0019ms, 0337ms total)
T0F78 000:371 JLINK_Halt()  returns 0x00 (0000ms, 0337ms total)
T0F78 000:371 JLINK_ReadMemU32(0xE000EDF0, 0x0001 Items, ...) -- CPU_ReadMem(4 bytes @ 0xE000EDF0) - Data: 03 00 03 00  returns 0x01 (0000ms, 0337ms total)
T0F78 000:371 JLINK_WriteU32(0xE000EDF0, 0xA05F0003) -- CPU_WriteMem(4 bytes @ 0xE000EDF0)  returns 0x00 (0001ms, 0338ms total)
T0F78 000:372 JLINK_WriteU32(0xE000EDFC, 0x01000000) -- CPU_WriteMem(4 bytes @ 0xE000EDFC)  returns 0x00 (0000ms, 0338ms total)
T0F78 000:382 JLINK_GetHWStatus(...)  returns 0x00 (0000ms, 0338ms total)
T0F78 000:388 JLINK_GetNumBPUnits(Type = 0xFFFFFF00)  returns 0x06 (0000ms, 0338ms total)
T0F78 000:388 JLINK_GetNumBPUnits(Type = 0xF0)  returns 0x2000 (0000ms, 0338ms total)
T0F78 000:388 JLINK_GetNumWPUnits()  returns 0x04 (0000ms, 0338ms total)
T0F78 000:396 JLINK_GetSpeed()  returns 0x7D0 (0000ms, 0338ms total)
T0F78 000:401 JLINK_ReadMemU32(0xE000E004, 0x0001 Items, ...) -- CPU_ReadMem(4 bytes @ 0xE000E004) - Data: 01 00 00 00  returns 0x01 (0000ms, 0338ms total)
T0F78 000:401 JLINK_ReadMemU32(0xE000E004, 0x0001 Items, ...) -- CPU_ReadMem(4 bytes @ 0xE000E004) - Data: 01 00 00 00  returns 0x01 (0001ms, 0339ms total)
T0F78 000:402 JLINK_WriteMemEx(0xE0001000, 0x001C Bytes, ..., AccessWidth = 33554436) - Data: 01 00 00 00 00 00 00 00 00 00 00 00 00 00 00 00 ... -- CPU_WriteMem(28 bytes @ 0xE0001000)  returns 0x1C (0001ms, 0340ms total)
T0F78 000:403 JLINK_Halt()  returns 0x00 (0000ms, 0340ms total)
T0F78 000:403 JLINK_IsHalted()  returns TRUE (0000ms, 0340ms total)
T0F78 000:405 JLINK_WriteMem(0x20000000, 0x0164 Bytes, ...) - Data: 00 BE 0A E0 0D 78 2D 06 68 40 08 24 40 00 00 D3 ... -- CPU_WriteMem(356 bytes @ 0x20000000)  returns 0x164 (0005ms, 0345ms total)
T0F78 000:410 JLINK_WriteReg(R0, 0x08000000)  returns 0x00 (0000ms, 0345ms total)
T0F78 000:410 JLINK_WriteReg(R1, 0x00B71B00)  returns 0x00 (0000ms, 0345ms total)
T0F78 000:410 JLINK_WriteReg(R2, 0x00000001)  returns 0x00 (0000ms, 0345ms total)
T0F78 000:410 JLINK_WriteReg(R3, 0x00000000)  returns 0x00 (0000ms, 0345ms total)
T0F78 000:410 JLINK_WriteReg(R4, 0x00000000)  returns 0x00 (0000ms, 0345ms total)
T0F78 000:410 JLINK_WriteReg(R5, 0x00000000)  returns 0x00 (0000ms, 0345ms total)
T0F78 000:410 JLINK_WriteReg(R6, 0x00000000)  returns 0x00 (0000ms, 0345ms total)
T0F78 000:410 JLINK_WriteReg(R7, 0x00000000)  returns 0x00 (0000ms, 0345ms total)
T0F78 000:410 JLINK_WriteReg(R8, 0x00000000)  returns 0x00 (0000ms, 0345ms total)
T0F78 000:410 JLINK_WriteReg(R9, 0x20000160)  returns 0x00 (0000ms, 0345ms total)
T0F78 000:410 JLINK_WriteReg(R10, 0x00000000)  returns 0x00 (0000ms, 0345ms total)
T0F78 000:410 JLINK_WriteReg(R11, 0x00000000)  returns 0x00 (0000ms, 0345ms total)
T0F78 000:410 JLINK_WriteReg(R12, 0x00000000)  returns 0x00 (0000ms, 0345ms total)
T0F78 000:410 JLINK_WriteReg(R13 (SP), 0x20001000)  returns 0x00 (0000ms, 0345ms total)
T0F78 000:410 JLINK_WriteReg(R14, 0x20000001)  returns 0x00 (0000ms, 0345ms total)
T0F78 000:410 JLINK_WriteReg(R15 (PC), 0x20000038)  returns 0x00 (0000ms, 0345ms total)
T0F78 000:410 JLINK_WriteReg(XPSR, 0x01000000)  returns 0x00 (0000ms, 0345ms total)
T0F78 000:410 JLINK_WriteReg(MSP, 0x20001000)  returns 0x00 (0000ms, 0345ms total)
T0F78 000:410 JLINK_WriteReg(PSP, 0x20001000)  returns 0x00 (0000ms, 0345ms total)
T0F78 000:410 JLINK_WriteReg(CFBP, 0x00000000)  returns 0x00 (0000ms, 0345ms total)
T0F78 000:410 JLINK_SetBPEx(Addr = 0x20000000, Type = 0xFFFFFFF2) -- CPU_ReadMem(2 bytes @ 0x20000000)  returns 0x00000001 (0001ms, 0346ms total)
T0F78 000:411 JLINK_Go() -- CPU_WriteMem(2 bytes @ 0x20000000) -- CPU_WriteMem(4 bytes @ 0xE0002008) -- CPU_WriteMem(4 bytes @ 0xE000200C) -- CPU_WriteMem(4 bytes @ 0xE0002010) -- CPU_WriteMem(4 bytes @ 0xE0002014) -- CPU_WriteMem(4 bytes @ 0xE0002018) -- CPU_WriteMem(4 bytes @ 0xE000201C) -- CPU_WriteMem(4 bytes @ 0xE0001004) (0006ms, 0352ms total)
T0F78 000:417 JLINK_IsHalted() -- CPU_ReadMem(2 bytes @ 0x20000000)  returns TRUE (0004ms, 0356ms total)
T0F78 000:421 JLINK_ReadReg(R15 (PC))  returns 0x20000000 (0000ms, 0352ms total)
T0F78 000:421 JLINK_ClrBPEx(BPHandle = 0x00000001)  returns 0x00 (0000ms, 0352ms total)
T0F78 000:421 JLINK_ReadReg(R0)  returns 0x00000000 (0000ms, 0352ms total)
T0F78 000:422 JLINK_WriteReg(R0, 0x08000000)  returns 0x00 (0000ms, 0352ms total)
T0F78 000:422 JLINK_WriteReg(R1, 0x00000800)  returns 0x00 (0000ms, 0352ms total)
T0F78 000:422 JLINK_WriteReg(R2, 0x000000FF)  returns 0x00 (0000ms, 0352ms total)
T0F78 000:422 JLINK_WriteReg(R3, 0x00000000)  returns 0x00 (0000ms, 0352ms total)
T0F78 000:422 JLINK_WriteReg(R4, 0x00000000)  returns 0x00 (0000ms, 0352ms total)
T0F78 000:422 JLINK_WriteReg(R5, 0x00000000)  returns 0x00 (0000ms, 0352ms total)
T0F78 000:422 JLINK_WriteReg(R6, 0x00000000)  returns 0x00 (0000ms, 0352ms total)
T0F78 000:422 JLINK_WriteReg(R7, 0x00000000)  returns 0x00 (0000ms, 0352ms total)
T0F78 000:422 JLINK_WriteReg(R8, 0x00000000)  returns 0x00 (0000ms, 0352ms total)
T0F78 000:422 JLINK_WriteReg(R9, 0x20000160)  returns 0x00 (0000ms, 0352ms total)
T0F78 000:422 JLINK_WriteReg(R10, 0x00000000)  returns 0x00 (0000ms, 0352ms total)
T0F78 000:422 JLINK_WriteReg(R11, 0x00000000)  returns 0x00 (0000ms, 0352ms total)
T0F78 000:422 JLINK_WriteReg(R12, 0x00000000)  returns 0x00 (0000ms, 0352ms total)
T0F78 000:422 JLINK_WriteReg(R13 (SP), 0x20001000)  returns 0x00 (0000ms, 0352ms total)
T0F78 000:422 JLINK_WriteReg(R14, 0x20000001)  returns 0x00 (0000ms, 0352ms total)
T0F78 000:422 JLINK_WriteReg(R15 (PC), 0x20000020)  returns 0x00 (0000ms, 0352ms total)
T0F78 000:422 JLINK_WriteReg(XPSR, 0x01000000)  returns 0x00 (0000ms, 0352ms total)
T0F78 000:422 JLINK_WriteReg(MSP, 0x20001000)  returns 0x00 (0000ms, 0352ms total)
T0F78 000:422 JLINK_WriteReg(PSP, 0x20001000)  returns 0x00 (0000ms, 0352ms total)
T0F78 000:422 JLINK_WriteReg(CFBP, 0x00000000)  returns 0x00 (0000ms, 0352ms total)
T0F78 000:422 JLINK_SetBPEx(Addr = 0x20000000, Type = 0xFFFFFFF2)  returns 0x00000002 (0000ms, 0352ms total)
T0F78 000:422 JLINK_Go() (0003ms, 0355ms total)
T0F78 000:425 JLINK_IsHalted()  returns FALSE (0000ms, 0355ms total)
T0F78 000:464 JLINK_IsHalted() -- CPU_ReadMem(2 bytes @ 0x20000000)  returns TRUE (0004ms, 0359ms total)
T0F78 000:468 JLINK_ReadReg(R15 (PC))  returns 0x20000000 (0001ms, 0356ms total)
T0F78 000:469 JLINK_ClrBPEx(BPHandle = 0x00000002)  returns 0x00 (0000ms, 0356ms total)
T0F78 000:469 JLINK_ReadReg(R0)  returns 0x00000000 (0000ms, 0356ms total)
T0F78 000:469 JLINK_WriteReg(R0, 0x08000800)  returns 0x00 (0000ms, 0356ms total)
T0F78 000:469 JLINK_WriteReg(R1, 0x00000800)  returns 0x00 (0000ms, 0356ms total)
T0F78 000:469 JLINK_WriteReg(R2, 0x000000FF)  returns 0x00 (0000ms, 0356ms total)
T0F78 000:469 JLINK_WriteReg(R3, 0x00000000)  returns 0x00 (0000ms, 0356ms total)
T0F78 000:469 JLINK_WriteReg(R4, 0x00000000)  returns 0x00 (0000ms, 0356ms total)
T0F78 000:469 JLINK_WriteReg(R5, 0x00000000)  returns 0x00 (0000ms, 0356ms total)
T0F78 000:469 JLINK_WriteReg(R6, 0x00000000)  returns 0x00 (0000ms, 0356ms total)
T0F78 000:469 JLINK_WriteReg(R7, 0x00000000)  returns 0x00 (0000ms, 0356ms total)
T0F78 000:469 JLINK_WriteReg(R8, 0x00000000)  returns 0x00 (0000ms, 0356ms total)
T0F78 000:469 JLINK_WriteReg(R9, 0x20000160)  returns 0x00 (0000ms, 0356ms total)
T0F78 000:469 JLINK_WriteReg(R10, 0x00000000)  returns 0x00 (0000ms, 0356ms total)
T0F78 000:469 JLINK_WriteReg(R11, 0x00000000)  returns 0x00 (0000ms, 0356ms total)
T0F78 000:469 JLINK_WriteReg(R12, 0x00000000)  returns 0x00 (0000ms, 0356ms total)
T0F78 000:469 JLINK_WriteReg(R13 (SP), 0x20001000)  returns 0x00 (0000ms, 0356ms total)
T0F78 000:469 JLINK_WriteReg(R14, 0x20000001)  returns 0x00 (0000ms, 0356ms total)
T0F78 000:469 JLINK_WriteReg(R15 (PC), 0x20000020)  returns 0x00 (0000ms, 0356ms total)
T0F78 000:469 JLINK_WriteReg(XPSR, 0x01000000)  returns 0x00 (0000ms, 0356ms total)
T0F78 000:469 JLINK_WriteReg(MSP, 0x20001000)  returns 0x00 (0000ms, 0356ms total)
T0F78 000:469 JLINK_WriteReg(PSP, 0x20001000)  returns 0x00 (0000ms, 0356ms total)
T0F78 000:469 JLINK_WriteReg(CFBP, 0x00000000)  returns 0x00 (0001ms, 0357ms total)
T0F78 000:470 JLINK_SetBPEx(Addr = 0x20000000, Type = 0xFFFFFFF2)  returns 0x00000003 (0000ms, 0357ms total)
T0F78 000:470 JLINK_Go() (0002ms, 0359ms total)
T0F78 000:472 JLINK_IsHalted()  returns FALSE (0000ms, 0359ms total)
T0F78 000:476 JLINK_IsHalted() -- CPU_ReadMem(2 bytes @ 0x20000000)  returns TRUE (0005ms, 0364ms total)
T0F78 000:481 JLINK_ReadReg(R15 (PC))  returns 0x20000000 (0000ms, 0359ms total)
T0F78 000:481 JLINK_ClrBPEx(BPHandle = 0x00000003)  returns 0x00 (0000ms, 0359ms total)
T0F78 000:481 JLINK_ReadReg(R0)  returns 0x00000000 (0000ms, 0359ms total)
T0F78 000:481 JLINK_WriteReg(R0, 0x08001000)  returns 0x00 (0000ms, 0359ms total)
T0F78 000:481 JLINK_WriteReg(R1, 0x00000800)  returns 0x00 (0000ms, 0359ms total)
T0F78 000:481 JLINK_WriteReg(R2, 0x000000FF)  returns 0x00 (0000ms, 0359ms total)
T0F78 000:481 JLINK_WriteReg(R3, 0x00000000)  returns 0x00 (0000ms, 0359ms total)
T0F78 000:481 JLINK_WriteReg(R4, 0x00000000)  returns 0x00 (0000ms, 0359ms total)
T0F78 000:481 JLINK_WriteReg(R5, 0x00000000)  returns 0x00 (0000ms, 0359ms total)
T0F78 000:482 JLINK_WriteReg(R6, 0x00000000)  returns 0x00 (0000ms, 0360ms total)
T0F78 000:482 JLINK_WriteReg(R7, 0x00000000)  returns 0x00 (0000ms, 0360ms total)
T0F78 000:482 JLINK_WriteReg(R8, 0x00000000)  returns 0x00 (0000ms, 0360ms total)
T0F78 000:482 JLINK_WriteReg(R9, 0x20000160)  returns 0x00 (0000ms, 0360ms total)
T0F78 000:482 JLINK_WriteReg(R10, 0x00000000)  returns 0x00 (0000ms, 0360ms total)
T0F78 000:482 JLINK_WriteReg(R11, 0x00000000)  returns 0x00 (0000ms, 0360ms total)
T0F78 000:482 JLINK_WriteReg(R12, 0x00000000)  returns 0x00 (0000ms, 0360ms total)
T0F78 000:482 JLINK_WriteReg(R13 (SP), 0x20001000)  returns 0x00 (0000ms, 0360ms total)
T0F78 000:482 JLINK_WriteReg(R14, 0x20000001)  returns 0x00 (0000ms, 0360ms total)
T0F78 000:482 JLINK_WriteReg(R15 (PC), 0x20000020)  returns 0x00 (0000ms, 0360ms total)
T0F78 000:482 JLINK_WriteReg(XPSR, 0x01000000)  returns 0x00 (0000ms, 0360ms total)
T0F78 000:482 JLINK_WriteReg(MSP, 0x20001000)  returns 0x00 (0000ms, 0360ms total)
T0F78 000:482 JLINK_WriteReg(PSP, 0x20001000)  returns 0x00 (0000ms, 0360ms total)
T0F78 000:482 JLINK_WriteReg(CFBP, 0x00000000)  returns 0x00 (0000ms, 0360ms total)
T0F78 000:482 JLINK_SetBPEx(Addr = 0x20000000, Type = 0xFFFFFFF2)  returns 0x00000004 (0000ms, 0360ms total)
T0F78 000:482 JLINK_Go() (0002ms, 0362ms total)
T0F78 000:484 JLINK_IsHalted()  returns FALSE (0001ms, 0363ms total)
T0F78 000:487 JLINK_IsHalted()  returns FALSE (0000ms, 0362ms total)
T0F78 000:489 JLINK_IsHalted() -- CPU_ReadMem(2 bytes @ 0x20000000)  returns TRUE (0005ms, 0367ms total)
T0F78 000:494 JLINK_ReadReg(R15 (PC))  returns 0x20000000 (0000ms, 0362ms total)
T0F78 000:494 JLINK_ClrBPEx(BPHandle = 0x00000004)  returns 0x00 (0000ms, 0362ms total)
T0F78 000:494 JLINK_ReadReg(R0)  returns 0x00000000 (0000ms, 0362ms total)
T0F78 000:494 JLINK_WriteReg(R0, 0x08001800)  returns 0x00 (0000ms, 0362ms total)
T0F78 000:494 JLINK_WriteReg(R1, 0x00000800)  returns 0x00 (0000ms, 0362ms total)
T0F78 000:494 JLINK_WriteReg(R2, 0x000000FF)  returns 0x00 (0000ms, 0362ms total)
T0F78 000:494 JLINK_WriteReg(R3, 0x00000000)  returns 0x00 (0000ms, 0362ms total)
T0F78 000:494 JLINK_WriteReg(R4, 0x00000000)  returns 0x00 (0000ms, 0362ms total)
T0F78 000:494 JLINK_WriteReg(R5, 0x00000000)  returns 0x00 (0000ms, 0362ms total)
T0F78 000:494 JLINK_WriteReg(R6, 0x00000000)  returns 0x00 (0001ms, 0363ms total)
T0F78 000:495 JLINK_WriteReg(R7, 0x00000000)  returns 0x00 (0000ms, 0363ms total)
T0F78 000:495 JLINK_WriteReg(R8, 0x00000000)  returns 0x00 (0000ms, 0363ms total)
T0F78 000:495 JLINK_WriteReg(R9, 0x20000160)  returns 0x00 (0000ms, 0363ms total)
T0F78 000:495 JLINK_WriteReg(R10, 0x00000000)  returns 0x00 (0000ms, 0363ms total)
T0F78 000:495 JLINK_WriteReg(R11, 0x00000000)  returns 0x00 (0000ms, 0363ms total)
T0F78 000:495 JLINK_WriteReg(R12, 0x00000000)  returns 0x00 (0000ms, 0363ms total)
T0F78 000:495 JLINK_WriteReg(R13 (SP), 0x20001000)  returns 0x00 (0000ms, 0363ms total)
T0F78 000:495 JLINK_WriteReg(R14, 0x20000001)  returns 0x00 (0000ms, 0363ms total)
T0F78 000:495 JLINK_WriteReg(R15 (PC), 0x20000020)  returns 0x00 (0000ms, 0363ms total)
T0F78 000:495 JLINK_WriteReg(XPSR, 0x01000000)  returns 0x00 (0000ms, 0363ms total)
T0F78 000:495 JLINK_WriteReg(MSP, 0x20001000)  returns 0x00 (0000ms, 0363ms total)
T0F78 000:495 JLINK_WriteReg(PSP, 0x20001000)  returns 0x00 (0000ms, 0363ms total)
T0F78 000:495 JLINK_WriteReg(CFBP, 0x00000000)  returns 0x00 (0000ms, 0363ms total)
T0F78 000:495 JLINK_SetBPEx(Addr = 0x20000000, Type = 0xFFFFFFF2)  returns 0x00000005 (0000ms, 0363ms total)
T0F78 000:495 JLINK_Go() (0002ms, 0365ms total)
T0F78 000:497 JLINK_IsHalted()  returns FALSE (0001ms, 0366ms total)
T0F78 000:502 JLINK_IsHalted() -- CPU_ReadMem(2 bytes @ 0x20000000)  returns TRUE (0005ms, 0370ms total)
T0F78 000:507 JLINK_ReadReg(R15 (PC))  returns 0x20000000 (0000ms, 0365ms total)
T0F78 000:507 JLINK_ClrBPEx(BPHandle = 0x00000005)  returns 0x00 (0000ms, 0365ms total)
T0F78 000:507 JLINK_ReadReg(R0)  returns 0x00000000 (0000ms, 0365ms total)
T0F78 000:507 JLINK_WriteReg(R0, 0x08002000)  returns 0x00 (0000ms, 0365ms total)
T0F78 000:507 JLINK_WriteReg(R1, 0x00000800)  returns 0x00 (0000ms, 0365ms total)
T0F78 000:507 JLINK_WriteReg(R2, 0x000000FF)  returns 0x00 (0000ms, 0365ms total)
T0F78 000:507 JLINK_WriteReg(R3, 0x00000000)  returns 0x00 (0000ms, 0365ms total)
T0F78 000:507 JLINK_WriteReg(R4, 0x00000000)  returns 0x00 (0000ms, 0365ms total)
T0F78 000:507 JLINK_WriteReg(R5, 0x00000000)  returns 0x00 (0000ms, 0365ms total)
T0F78 000:507 JLINK_WriteReg(R6, 0x00000000)  returns 0x00 (0000ms, 0365ms total)
T0F78 000:507 JLINK_WriteReg(R7, 0x00000000)  returns 0x00 (0000ms, 0365ms total)
T0F78 000:507 JLINK_WriteReg(R8, 0x00000000)  returns 0x00 (0000ms, 0365ms total)
T0F78 000:507 JLINK_WriteReg(R9, 0x20000160)  returns 0x00 (0000ms, 0365ms total)
T0F78 000:507 JLINK_WriteReg(R10, 0x00000000)  returns 0x00 (0000ms, 0365ms total)
T0F78 000:507 JLINK_WriteReg(R11, 0x00000000)  returns 0x00 (0000ms, 0365ms total)
T0F78 000:507 JLINK_WriteReg(R12, 0x00000000)  returns 0x00 (0000ms, 0365ms total)
T0F78 000:507 JLINK_WriteReg(R13 (SP), 0x20001000)  returns 0x00 (0000ms, 0365ms total)
T0F78 000:507 JLINK_WriteReg(R14, 0x20000001)  returns 0x00 (0000ms, 0365ms total)
T0F78 000:507 JLINK_WriteReg(R15 (PC), 0x20000020)  returns 0x00 (0000ms, 0365ms total)
T0F78 000:507 JLINK_WriteReg(XPSR, 0x01000000)  returns 0x00 (0001ms, 0366ms total)
T0F78 000:508 JLINK_WriteReg(MSP, 0x20001000)  returns 0x00 (0000ms, 0366ms total)
T0F78 000:508 JLINK_WriteReg(PSP, 0x20001000)  returns 0x00 (0000ms, 0366ms total)
T0F78 000:508 JLINK_WriteReg(CFBP, 0x00000000)  returns 0x00 (0000ms, 0366ms total)
T0F78 000:508 JLINK_SetBPEx(Addr = 0x20000000, Type = 0xFFFFFFF2)  returns 0x00000006 (0000ms, 0366ms total)
T0F78 000:508 JLINK_Go() (0002ms, 0368ms total)
T0F78 000:510 JLINK_IsHalted()  returns FALSE (0000ms, 0368ms total)
T0F78 000:512 JLINK_IsHalted()  returns FALSE (0000ms, 0368ms total)
T0F78 000:514 JLINK_IsHalted() -- CPU_ReadMem(2 bytes @ 0x20000000)  returns TRUE (0005ms, 0373ms total)
T0F78 000:519 JLINK_ReadReg(R15 (PC))  returns 0x20000000 (0000ms, 0368ms total)
T0F78 000:519 JLINK_ClrBPEx(BPHandle = 0x00000006)  returns 0x00 (0000ms, 0368ms total)
T0F78 000:519 JLINK_ReadReg(R0)  returns 0x00000000 (0000ms, 0368ms total)
T0F78 000:519 JLINK_WriteReg(R0, 0x08002800)  returns 0x00 (0001ms, 0369ms total)
T0F78 000:520 JLINK_WriteReg(R1, 0x00000800)  returns 0x00 (0000ms, 0369ms total)
T0F78 000:520 JLINK_WriteReg(R2, 0x000000FF)  returns 0x00 (0000ms, 0369ms total)
T0F78 000:520 JLINK_WriteReg(R3, 0x00000000)  returns 0x00 (0000ms, 0369ms total)
T0F78 000:520 JLINK_WriteReg(R4, 0x00000000)  returns 0x00 (0000ms, 0369ms total)
T0F78 000:520 JLINK_WriteReg(R5, 0x00000000)  returns 0x00 (0000ms, 0369ms total)
T0F78 000:520 JLINK_WriteReg(R6, 0x00000000)  returns 0x00 (0000ms, 0369ms total)
T0F78 000:520 JLINK_WriteReg(R7, 0x00000000)  returns 0x00 (0000ms, 0369ms total)
T0F78 000:520 JLINK_WriteReg(R8, 0x00000000)  returns 0x00 (0000ms, 0369ms total)
T0F78 000:520 JLINK_WriteReg(R9, 0x20000160)  returns 0x00 (0000ms, 0369ms total)
T0F78 000:520 JLINK_WriteReg(R10, 0x00000000)  returns 0x00 (0000ms, 0369ms total)
T0F78 000:520 JLINK_WriteReg(R11, 0x00000000)  returns 0x00 (0000ms, 0369ms total)
T0F78 000:520 JLINK_WriteReg(R12, 0x00000000)  returns 0x00 (0000ms, 0369ms total)
T0F78 000:520 JLINK_WriteReg(R13 (SP), 0x20001000)  returns 0x00 (0000ms, 0369ms total)
T0F78 000:520 JLINK_WriteReg(R14, 0x20000001)  returns 0x00 (0000ms, 0369ms total)
T0F78 000:520 JLINK_WriteReg(R15 (PC), 0x20000020)  returns 0x00 (0000ms, 0369ms total)
T0F78 000:520 JLINK_WriteReg(XPSR, 0x01000000)  returns 0x00 (0000ms, 0369ms total)
T0F78 000:520 JLINK_WriteReg(MSP, 0x20001000)  returns 0x00 (0000ms, 0369ms total)
T0F78 000:520 JLINK_WriteReg(PSP, 0x20001000)  returns 0x00 (0000ms, 0369ms total)
T0F78 000:520 JLINK_WriteReg(CFBP, 0x00000000)  returns 0x00 (0000ms, 0369ms total)
T0F78 000:520 JLINK_SetBPEx(Addr = 0x20000000, Type = 0xFFFFFFF2)  returns 0x00000007 (0000ms, 0369ms total)
T0F78 000:520 JLINK_Go() (0002ms, 0371ms total)
T0F78 000:522 JLINK_IsHalted()  returns FALSE (0000ms, 0371ms total)
T0F78 000:525 JLINK_IsHalted()  returns FALSE (0000ms, 0371ms total)
T0F78 000:527 JLINK_IsHalted() -- CPU_ReadMem(2 bytes @ 0x20000000)  returns TRUE (0004ms, 0375ms total)
T0F78 000:531 JLINK_ReadReg(R15 (PC))  returns 0x20000000 (0000ms, 0371ms total)
T0F78 000:531 JLINK_ClrBPEx(BPHandle = 0x00000007)  returns 0x00 (0000ms, 0371ms total)
T0F78 000:531 JLINK_ReadReg(R0)  returns 0x00000000 (0000ms, 0371ms total)
T0F78 000:532 JLINK_WriteReg(R0, 0x08003000)  returns 0x00 (0000ms, 0371ms total)
T0F78 000:532 JLINK_WriteReg(R1, 0x00000800)  returns 0x00 (0000ms, 0371ms total)
T0F78 000:532 JLINK_WriteReg(R2, 0x000000FF)  returns 0x00 (0000ms, 0371ms total)
T0F78 000:532 JLINK_WriteReg(R3, 0x00000000)  returns 0x00 (0000ms, 0371ms total)
T0F78 000:532 JLINK_WriteReg(R4, 0x00000000)  returns 0x00 (0000ms, 0371ms total)
T0F78 000:532 JLINK_WriteReg(R5, 0x00000000)  returns 0x00 (0000ms, 0371ms total)
T0F78 000:532 JLINK_WriteReg(R6, 0x00000000)  returns 0x00 (0000ms, 0371ms total)
T0F78 000:532 JLINK_WriteReg(R7, 0x00000000)  returns 0x00 (0000ms, 0371ms total)
T0F78 000:532 JLINK_WriteReg(R8, 0x00000000)  returns 0x00 (0000ms, 0371ms total)
T0F78 000:532 JLINK_WriteReg(R9, 0x20000160)  returns 0x00 (0000ms, 0371ms total)
T0F78 000:532 JLINK_WriteReg(R10, 0x00000000)  returns 0x00 (0000ms, 0371ms total)
T0F78 000:532 JLINK_WriteReg(R11, 0x00000000)  returns 0x00 (0000ms, 0371ms total)
T0F78 000:532 JLINK_WriteReg(R12, 0x00000000)  returns 0x00 (0000ms, 0371ms total)
T0F78 000:532 JLINK_WriteReg(R13 (SP), 0x20001000)  returns 0x00 (0000ms, 0371ms total)
T0F78 000:532 JLINK_WriteReg(R14, 0x20000001)  returns 0x00 (0000ms, 0371ms total)
T0F78 000:532 JLINK_WriteReg(R15 (PC), 0x20000020)  returns 0x00 (0000ms, 0371ms total)
T0F78 000:532 JLINK_WriteReg(XPSR, 0x01000000)  returns 0x00 (0000ms, 0371ms total)
T0F78 000:532 JLINK_WriteReg(MSP, 0x20001000)  returns 0x00 (0000ms, 0371ms total)
T0F78 000:532 JLINK_WriteReg(PSP, 0x20001000)  returns 0x00 (0000ms, 0371ms total)
T0F78 000:532 JLINK_WriteReg(CFBP, 0x00000000)  returns 0x00 (0000ms, 0371ms total)
T0F78 000:532 JLINK_SetBPEx(Addr = 0x20000000, Type = 0xFFFFFFF2)  returns 0x00000008 (0000ms, 0371ms total)
T0F78 000:532 JLINK_Go() (0002ms, 0373ms total)
T0F78 000:535 JLINK_IsHalted()  returns FALSE (0000ms, 0373ms total)
T0F78 000:540 JLINK_IsHalted() -- CPU_ReadMem(2 bytes @ 0x20000000)  returns TRUE (0005ms, 0378ms total)
T0F78 000:545 JLINK_ReadReg(R15 (PC))  returns 0x20000000 (0000ms, 0373ms total)
T0F78 000:545 JLINK_ClrBPEx(BPHandle = 0x00000008)  returns 0x00 (0000ms, 0373ms total)
T0F78 000:545 JLINK_ReadReg(R0)  returns 0x00000000 (0000ms, 0373ms total)
T0F78 000:545 JLINK_WriteReg(R0, 0x08003800)  returns 0x00 (0000ms, 0373ms total)
T0F78 000:545 JLINK_WriteReg(R1, 0x00000800)  returns 0x00 (0000ms, 0373ms total)
T0F78 000:545 JLINK_WriteReg(R2, 0x000000FF)  returns 0x00 (0000ms, 0373ms total)
T0F78 000:545 JLINK_WriteReg(R3, 0x00000000)  returns 0x00 (0000ms, 0373ms total)
T0F78 000:545 JLINK_WriteReg(R4, 0x00000000)  returns 0x00 (0000ms, 0373ms total)
T0F78 000:545 JLINK_WriteReg(R5, 0x00000000)  returns 0x00 (0000ms, 0373ms total)
T0F78 000:545 JLINK_WriteReg(R6, 0x00000000)  returns 0x00 (0000ms, 0373ms total)
T0F78 000:545 JLINK_WriteReg(R7, 0x00000000)  returns 0x00 (0000ms, 0373ms total)
T0F78 000:545 JLINK_WriteReg(R8, 0x00000000)  returns 0x00 (0000ms, 0373ms total)
T0F78 000:545 JLINK_WriteReg(R9, 0x20000160)  returns 0x00 (0000ms, 0373ms total)
T0F78 000:545 JLINK_WriteReg(R10, 0x00000000)  returns 0x00 (0000ms, 0373ms total)
T0F78 000:545 JLINK_WriteReg(R11, 0x00000000)  returns 0x00 (0000ms, 0373ms total)
T0F78 000:545 JLINK_WriteReg(R12, 0x00000000)  returns 0x00 (0000ms, 0373ms total)
T0F78 000:545 JLINK_WriteReg(R13 (SP), 0x20001000)  returns 0x00 (0000ms, 0373ms total)
T0F78 000:545 JLINK_WriteReg(R14, 0x20000001)  returns 0x00 (0000ms, 0373ms total)
T0F78 000:545 JLINK_WriteReg(R15 (PC), 0x20000020)  returns 0x00 (0000ms, 0373ms total)
T0F78 000:545 JLINK_WriteReg(XPSR, 0x01000000)  returns 0x00 (0001ms, 0374ms total)
T0F78 000:546 JLINK_WriteReg(MSP, 0x20001000)  returns 0x00 (0000ms, 0374ms total)
T0F78 000:546 JLINK_WriteReg(PSP, 0x20001000)  returns 0x00 (0000ms, 0374ms total)
T0F78 000:546 JLINK_WriteReg(CFBP, 0x00000000)  returns 0x00 (0000ms, 0374ms total)
T0F78 000:546 JLINK_SetBPEx(Addr = 0x20000000, Type = 0xFFFFFFF2)  returns 0x00000009 (0000ms, 0374ms total)
T0F78 000:546 JLINK_Go() (0002ms, 0376ms total)
T0F78 000:548 JLINK_IsHalted()  returns FALSE (0000ms, 0376ms total)
T0F78 000:550 JLINK_IsHalted()  returns FALSE (0000ms, 0376ms total)
T0F78 000:552 JLINK_IsHalted() -- CPU_ReadMem(2 bytes @ 0x20000000)  returns TRUE (0005ms, 0381ms total)
T0F78 000:557 JLINK_ReadReg(R15 (PC))  returns 0x20000000 (0000ms, 0376ms total)
T0F78 000:557 JLINK_ClrBPEx(BPHandle = 0x00000009)  returns 0x00 (0000ms, 0376ms total)
T0F78 000:557 JLINK_ReadReg(R0)  returns 0x00000000 (0000ms, 0376ms total)
T0F78 000:557 JLINK_WriteReg(R0, 0x08004000)  returns 0x00 (0001ms, 0377ms total)
T0F78 000:558 JLINK_WriteReg(R1, 0x00000800)  returns 0x00 (0000ms, 0377ms total)
T0F78 000:558 JLINK_WriteReg(R2, 0x000000FF)  returns 0x00 (0000ms, 0377ms total)
T0F78 000:558 JLINK_WriteReg(R3, 0x00000000)  returns 0x00 (0000ms, 0377ms total)
T0F78 000:558 JLINK_WriteReg(R4, 0x00000000)  returns 0x00 (0000ms, 0377ms total)
T0F78 000:558 JLINK_WriteReg(R5, 0x00000000)  returns 0x00 (0000ms, 0377ms total)
T0F78 000:558 JLINK_WriteReg(R6, 0x00000000)  returns 0x00 (0000ms, 0377ms total)
T0F78 000:558 JLINK_WriteReg(R7, 0x00000000)  returns 0x00 (0000ms, 0377ms total)
T0F78 000:558 JLINK_WriteReg(R8, 0x00000000)  returns 0x00 (0000ms, 0377ms total)
T0F78 000:558 JLINK_WriteReg(R9, 0x20000160)  returns 0x00 (0000ms, 0377ms total)
T0F78 000:558 JLINK_WriteReg(R10, 0x00000000)  returns 0x00 (0000ms, 0377ms total)
T0F78 000:558 JLINK_WriteReg(R11, 0x00000000)  returns 0x00 (0000ms, 0377ms total)
T0F78 000:558 JLINK_WriteReg(R12, 0x00000000)  returns 0x00 (0000ms, 0377ms total)
T0F78 000:558 JLINK_WriteReg(R13 (SP), 0x20001000)  returns 0x00 (0000ms, 0377ms total)
T0F78 000:558 JLINK_WriteReg(R14, 0x20000001)  returns 0x00 (0000ms, 0377ms total)
T0F78 000:558 JLINK_WriteReg(R15 (PC), 0x20000020)  returns 0x00 (0000ms, 0377ms total)
T0F78 000:558 JLINK_WriteReg(XPSR, 0x01000000)  returns 0x00 (0000ms, 0377ms total)
T0F78 000:558 JLINK_WriteReg(MSP, 0x20001000)  returns 0x00 (0000ms, 0377ms total)
T0F78 000:558 JLINK_WriteReg(PSP, 0x20001000)  returns 0x00 (0000ms, 0377ms total)
T0F78 000:558 JLINK_WriteReg(CFBP, 0x00000000)  returns 0x00 (0000ms, 0377ms total)
T0F78 000:558 JLINK_SetBPEx(Addr = 0x20000000, Type = 0xFFFFFFF2)  returns 0x0000000A (0000ms, 0377ms total)
T0F78 000:558 JLINK_Go() (0002ms, 0379ms total)
T0F78 000:560 JLINK_IsHalted()  returns FALSE (0001ms, 0380ms total)
T0F78 000:563 JLINK_IsHalted()  returns FALSE (0000ms, 0379ms total)
T0F78 000:565 JLINK_IsHalted() -- CPU_ReadMem(2 bytes @ 0x20000000)  returns TRUE (0004ms, 0383ms total)
T0F78 000:569 JLINK_ReadReg(R15 (PC))  returns 0x20000000 (0000ms, 0379ms total)
T0F78 000:569 JLINK_ClrBPEx(BPHandle = 0x0000000A)  returns 0x00 (0000ms, 0379ms total)
T0F78 000:569 JLINK_ReadReg(R0)  returns 0x00000000 (0000ms, 0379ms total)
T0F78 000:570 JLINK_WriteReg(R0, 0x08004800)  returns 0x00 (0000ms, 0379ms total)
T0F78 000:570 JLINK_WriteReg(R1, 0x00000800)  returns 0x00 (0000ms, 0379ms total)
T0F78 000:570 JLINK_WriteReg(R2, 0x000000FF)  returns 0x00 (0000ms, 0379ms total)
T0F78 000:570 JLINK_WriteReg(R3, 0x00000000)  returns 0x00 (0000ms, 0379ms total)
T0F78 000:570 JLINK_WriteReg(R4, 0x00000000)  returns 0x00 (0000ms, 0379ms total)
T0F78 000:570 JLINK_WriteReg(R5, 0x00000000)  returns 0x00 (0000ms, 0379ms total)
T0F78 000:570 JLINK_WriteReg(R6, 0x00000000)  returns 0x00 (0000ms, 0379ms total)
T0F78 000:570 JLINK_WriteReg(R7, 0x00000000)  returns 0x00 (0000ms, 0379ms total)
T0F78 000:570 JLINK_WriteReg(R8, 0x00000000)  returns 0x00 (0000ms, 0379ms total)
T0F78 000:570 JLINK_WriteReg(R9, 0x20000160)  returns 0x00 (0000ms, 0379ms total)
T0F78 000:570 JLINK_WriteReg(R10, 0x00000000)  returns 0x00 (0000ms, 0379ms total)
T0F78 000:570 JLINK_WriteReg(R11, 0x00000000)  returns 0x00 (0000ms, 0379ms total)
T0F78 000:570 JLINK_WriteReg(R12, 0x00000000)  returns 0x00 (0000ms, 0379ms total)
T0F78 000:570 JLINK_WriteReg(R13 (SP), 0x20001000)  returns 0x00 (0000ms, 0379ms total)
T0F78 000:570 JLINK_WriteReg(R14, 0x20000001)  returns 0x00 (0000ms, 0379ms total)
T0F78 000:570 JLINK_WriteReg(R15 (PC), 0x20000020)  returns 0x00 (0000ms, 0379ms total)
T0F78 000:570 JLINK_WriteReg(XPSR, 0x01000000)  returns 0x00 (0000ms, 0379ms total)
T0F78 000:570 JLINK_WriteReg(MSP, 0x20001000)  returns 0x00 (0000ms, 0379ms total)
T0F78 000:570 JLINK_WriteReg(PSP, 0x20001000)  returns 0x00 (0000ms, 0379ms total)
T0F78 000:570 JLINK_WriteReg(CFBP, 0x00000000)  returns 0x00 (0000ms, 0379ms total)
T0F78 000:570 JLINK_SetBPEx(Addr = 0x20000000, Type = 0xFFFFFFF2)  returns 0x0000000B (0000ms, 0379ms total)
T0F78 000:570 JLINK_Go() (0002ms, 0381ms total)
T0F78 000:572 JLINK_IsHalted()  returns FALSE (0001ms, 0382ms total)
T0F78 000:577 JLINK_IsHalted() -- CPU_ReadMem(2 bytes @ 0x20000000)  returns TRUE (0005ms, 0386ms total)
T0F78 000:582 JLINK_ReadReg(R15 (PC))  returns 0x20000000 (0000ms, 0381ms total)
T0F78 000:582 JLINK_ClrBPEx(BPHandle = 0x0000000B)  returns 0x00 (0000ms, 0381ms total)
T0F78 000:582 JLINK_ReadReg(R0)  returns 0x00000000 (0000ms, 0381ms total)
T0F78 000:582 JLINK_WriteReg(R0, 0x08005000)  returns 0x00 (0000ms, 0381ms total)
T0F78 000:582 JLINK_WriteReg(R1, 0x00000800)  returns 0x00 (0000ms, 0381ms total)
T0F78 000:582 JLINK_WriteReg(R2, 0x000000FF)  returns 0x00 (0000ms, 0381ms total)
T0F78 000:582 JLINK_WriteReg(R3, 0x00000000)  returns 0x00 (0000ms, 0381ms total)
T0F78 000:582 JLINK_WriteReg(R4, 0x00000000)  returns 0x00 (0000ms, 0381ms total)
T0F78 000:582 JLINK_WriteReg(R5, 0x00000000)  returns 0x00 (0000ms, 0381ms total)
T0F78 000:582 JLINK_WriteReg(R6, 0x00000000)  returns 0x00 (0000ms, 0381ms total)
T0F78 000:582 JLINK_WriteReg(R7, 0x00000000)  returns 0x00 (0000ms, 0381ms total)
T0F78 000:582 JLINK_WriteReg(R8, 0x00000000)  returns 0x00 (0000ms, 0381ms total)
T0F78 000:582 JLINK_WriteReg(R9, 0x20000160)  returns 0x00 (0000ms, 0381ms total)
T0F78 000:582 JLINK_WriteReg(R10, 0x00000000)  returns 0x00 (0000ms, 0381ms total)
T0F78 000:582 JLINK_WriteReg(R11, 0x00000000)  returns 0x00 (0000ms, 0381ms total)
T0F78 000:582 JLINK_WriteReg(R12, 0x00000000)  returns 0x00 (0000ms, 0381ms total)
T0F78 000:582 JLINK_WriteReg(R13 (SP), 0x20001000)  returns 0x00 (0000ms, 0381ms total)
T0F78 000:582 JLINK_WriteReg(R14, 0x20000001)  returns 0x00 (0000ms, 0381ms total)
T0F78 000:582 JLINK_WriteReg(R15 (PC), 0x20000020)  returns 0x00 (0000ms, 0381ms total)
T0F78 000:582 JLINK_WriteReg(XPSR, 0x01000000)  returns 0x00 (0000ms, 0381ms total)
T0F78 000:582 JLINK_WriteReg(MSP, 0x20001000)  returns 0x00 (0000ms, 0381ms total)
T0F78 000:582 JLINK_WriteReg(PSP, 0x20001000)  returns 0x00 (0001ms, 0382ms total)
T0F78 000:583 JLINK_WriteReg(CFBP, 0x00000000)  returns 0x00 (0000ms, 0382ms total)
T0F78 000:583 JLINK_SetBPEx(Addr = 0x20000000, Type = 0xFFFFFFF2)  returns 0x0000000C (0000ms, 0382ms total)
T0F78 000:583 JLINK_Go() (0002ms, 0384ms total)
T0F78 000:585 JLINK_IsHalted()  returns FALSE (0000ms, 0384ms total)
T0F78 000:587 JLINK_IsHalted()  returns FALSE (0000ms, 0384ms total)
T0F78 000:589 JLINK_IsHalted() -- CPU_ReadMem(2 bytes @ 0x20000000)  returns TRUE (0004ms, 0388ms total)
T0F78 000:593 JLINK_ReadReg(R15 (PC))  returns 0x20000000 (0000ms, 0384ms total)
T0F78 000:593 JLINK_ClrBPEx(BPHandle = 0x0000000C)  returns 0x00 (0000ms, 0384ms total)
T0F78 000:593 JLINK_ReadReg(R0)  returns 0x00000000 (0000ms, 0384ms total)
T0F78 000:594 JLINK_WriteReg(R0, 0x00000001)  returns 0x00 (0000ms, 0384ms total)
T0F78 000:594 JLINK_WriteReg(R1, 0x00000800)  returns 0x00 (0000ms, 0384ms total)
T0F78 000:594 JLINK_WriteReg(R2, 0x000000FF)  returns 0x00 (0000ms, 0384ms total)
T0F78 000:594 JLINK_WriteReg(R3, 0x00000000)  returns 0x00 (0000ms, 0384ms total)
T0F78 000:594 JLINK_WriteReg(R4, 0x00000000)  returns 0x00 (0000ms, 0384ms total)
T0F78 000:594 JLINK_WriteReg(R5, 0x00000000)  returns 0x00 (0000ms, 0384ms total)
T0F78 000:594 JLINK_WriteReg(R6, 0x00000000)  returns 0x00 (0000ms, 0384ms total)
T0F78 000:594 JLINK_WriteReg(R7, 0x00000000)  returns 0x00 (0000ms, 0384ms total)
T0F78 000:594 JLINK_WriteReg(R8, 0x00000000)  returns 0x00 (0000ms, 0384ms total)
T0F78 000:594 JLINK_WriteReg(R9, 0x20000160)  returns 0x00 (0000ms, 0384ms total)
T0F78 000:594 JLINK_WriteReg(R10, 0x00000000)  returns 0x00 (0000ms, 0384ms total)
T0F78 000:594 JLINK_WriteReg(R11, 0x00000000)  returns 0x00 (0000ms, 0384ms total)
T0F78 000:594 JLINK_WriteReg(R12, 0x00000000)  returns 0x00 (0000ms, 0384ms total)
T0F78 000:594 JLINK_WriteReg(R13 (SP), 0x20001000)  returns 0x00 (0000ms, 0384ms total)
T0F78 000:594 JLINK_WriteReg(R14, 0x20000001)  returns 0x00 (0000ms, 0384ms total)
T0F78 000:594 JLINK_WriteReg(R15 (PC), 0x2000006A)  returns 0x00 (0000ms, 0384ms total)
T0F78 000:594 JLINK_WriteReg(XPSR, 0x01000000)  returns 0x00 (0000ms, 0384ms total)
T0F78 000:594 JLINK_WriteReg(MSP, 0x20001000)  returns 0x00 (0000ms, 0384ms total)
T0F78 000:594 JLINK_WriteReg(PSP, 0x20001000)  returns 0x00 (0000ms, 0384ms total)
T0F78 000:594 JLINK_WriteReg(CFBP, 0x00000000)  returns 0x00 (0000ms, 0384ms total)
T0F78 000:594 JLINK_SetBPEx(Addr = 0x20000000, Type = 0xFFFFFFF2)  returns 0x0000000D (0000ms, 0384ms total)
T0F78 000:594 JLINK_Go() (0002ms, 0386ms total)
T0F78 000:596 JLINK_IsHalted() -- CPU_ReadMem(2 bytes @ 0x20000000)  returns TRUE (0005ms, 0391ms total)
T0F78 000:601 JLINK_ReadReg(R15 (PC))  returns 0x20000000 (0000ms, 0386ms total)
T0F78 000:601 JLINK_ClrBPEx(BPHandle = 0x0000000D)  returns 0x00 (0000ms, 0386ms total)
T0F78 000:601 JLINK_ReadReg(R0)  returns 0x00000000 (0000ms, 0386ms total)
T0F78 000:659 JLINK_WriteMem(0x20000000, 0x0164 Bytes, ...) - Data: 00 BE 0A E0 0D 78 2D 06 68 40 08 24 40 00 00 D3 ... -- CPU_WriteMem(356 bytes @ 0x20000000)  returns 0x164 (0004ms, 0390ms total)
T0F78 000:663 JLINK_WriteReg(R0, 0x08000000)  returns 0x00 (0000ms, 0390ms total)
T0F78 000:663 JLINK_WriteReg(R1, 0x00B71B00)  returns 0x00 (0000ms, 0390ms total)
T0F78 000:663 JLINK_WriteReg(R2, 0x00000002)  returns 0x00 (0000ms, 0390ms total)
T0F78 000:663 JLINK_WriteReg(R3, 0x00000000)  returns 0x00 (0000ms, 0390ms total)
T0F78 000:663 JLINK_WriteReg(R4, 0x00000000)  returns 0x00 (0000ms, 0390ms total)
T0F78 000:663 JLINK_WriteReg(R5, 0x00000000)  returns 0x00 (0000ms, 0390ms total)
T0F78 000:663 JLINK_WriteReg(R6, 0x00000000)  returns 0x00 (0000ms, 0390ms total)
T0F78 000:663 JLINK_WriteReg(R7, 0x00000000)  returns 0x00 (0000ms, 0390ms total)
T0F78 000:663 JLINK_WriteReg(R8, 0x00000000)  returns 0x00 (0000ms, 0390ms total)
T0F78 000:663 JLINK_WriteReg(R9, 0x20000160)  returns 0x00 (0000ms, 0390ms total)
T0F78 000:663 JLINK_WriteReg(R10, 0x00000000)  returns 0x00 (0000ms, 0390ms total)
T0F78 000:663 JLINK_WriteReg(R11, 0x00000000)  returns 0x00 (0000ms, 0390ms total)
T0F78 000:663 JLINK_WriteReg(R12, 0x00000000)  returns 0x00 (0000ms, 0390ms total)
T0F78 000:663 JLINK_WriteReg(R13 (SP), 0x20001000)  returns 0x00 (0000ms, 0390ms total)
T0F78 000:663 JLINK_WriteReg(R14, 0x20000001)  returns 0x00 (0000ms, 0390ms total)
T0F78 000:663 JLINK_WriteReg(R15 (PC), 0x20000038)  returns 0x00 (0000ms, 0390ms total)
T0F78 000:663 JLINK_WriteReg(XPSR, 0x01000000)  returns 0x00 (0000ms, 0390ms total)
T0F78 000:663 JLINK_WriteReg(MSP, 0x20001000)  returns 0x00 (0000ms, 0390ms total)
T0F78 000:663 JLINK_WriteReg(PSP, 0x20001000)  returns 0x00 (0000ms, 0390ms total)
T0F78 000:663 JLINK_WriteReg(CFBP, 0x00000000)  returns 0x00 (0000ms, 0390ms total)
T0F78 000:663 JLINK_SetBPEx(Addr = 0x20000000, Type = 0xFFFFFFF2) -- CPU_ReadMem(2 bytes @ 0x20000000)  returns 0x0000000E (0001ms, 0391ms total)
T0F78 000:664 JLINK_Go() -- CPU_WriteMem(2 bytes @ 0x20000000) (0002ms, 0393ms total)
T0F78 000:666 JLINK_IsHalted() -- CPU_ReadMem(2 bytes @ 0x20000000)  returns TRUE (0005ms, 0398ms total)
T0F78 000:671 JLINK_ReadReg(R15 (PC))  returns 0x20000000 (0000ms, 0393ms total)
T0F78 000:671 JLINK_ClrBPEx(BPHandle = 0x0000000E)  returns 0x00 (0000ms, 0393ms total)
T0F78 000:671 JLINK_ReadReg(R0)  returns 0x00000000 (0000ms, 0393ms total)
T0F78 000:672 JLINK_WriteMem(0x20000164, 0x029C Bytes, ...) - Data: 10 07 00 20 E1 28 00 08 CF 01 00 08 D1 01 00 08 ... -- CPU_WriteMem(668 bytes @ 0x20000164)  returns 0x29C (0007ms, 0400ms total)
T0F78 000:679 JLINK_WriteMem(0x20000400, 0x0164 Bytes, ...) - Data: 20 F0 03 00 40 49 48 60 08 46 40 68 40 F0 02 00 ... -- CPU_WriteMem(356 bytes @ 0x20000400)  returns 0x164 (0004ms, 0404ms total)
T0F78 000:683 JLINK_WriteReg(R0, 0x08000000)  returns 0x00 (0000ms, 0404ms total)
T0F78 000:683 JLINK_WriteReg(R1, 0x00000400)  returns 0x00 (0000ms, 0404ms total)
T0F78 000:683 JLINK_WriteReg(R2, 0x20000164)  returns 0x00 (0000ms, 0404ms total)
T0F78 000:683 JLINK_WriteReg(R3, 0x00000000)  returns 0x00 (0000ms, 0404ms total)
T0F78 000:683 JLINK_WriteReg(R4, 0x00000000)  returns 0x00 (0000ms, 0404ms total)
T0F78 000:683 JLINK_WriteReg(R5, 0x00000000)  returns 0x00 (0000ms, 0404ms total)
T0F78 000:683 JLINK_WriteReg(R6, 0x00000000)  returns 0x00 (0000ms, 0404ms total)
T0F78 000:683 JLINK_WriteReg(R7, 0x00000000)  returns 0x00 (0000ms, 0404ms total)
T0F78 000:683 JLINK_WriteReg(R8, 0x00000000)  returns 0x00 (0000ms, 0404ms total)
T0F78 000:683 JLINK_WriteReg(R9, 0x20000160)  returns 0x00 (0000ms, 0404ms total)
T0F78 000:683 JLINK_WriteReg(R10, 0x00000000)  returns 0x00 (0000ms, 0404ms total)
T0F78 000:683 JLINK_WriteReg(R11, 0x00000000)  returns 0x00 (0000ms, 0404ms total)
T0F78 000:683 JLINK_WriteReg(R12, 0x00000000)  returns 0x00 (0000ms, 0404ms total)
T0F78 000:683 JLINK_WriteReg(R13 (SP), 0x20001000)  returns 0x00 (0000ms, 0404ms total)
T0F78 000:683 JLINK_WriteReg(R14, 0x20000001)  returns 0x00 (0000ms, 0404ms total)
T0F78 000:683 JLINK_WriteReg(R15 (PC), 0x200000F4)  returns 0x00 (0000ms, 0404ms total)
T0F78 000:683 JLINK_WriteReg(XPSR, 0x01000000)  returns 0x00 (0000ms, 0404ms total)
T0F78 000:683 JLINK_WriteReg(MSP, 0x20001000)  returns 0x00 (0000ms, 0404ms total)
T0F78 000:683 JLINK_WriteReg(PSP, 0x20001000)  returns 0x00 (0000ms, 0404ms total)
T0F78 000:683 JLINK_WriteReg(CFBP, 0x00000000)  returns 0x00 (0000ms, 0404ms total)
T0F78 000:683 JLINK_SetBPEx(Addr = 0x20000000, Type = 0xFFFFFFF2)  returns 0x0000000F (0000ms, 0404ms total)
T0F78 000:683 JLINK_Go() (0002ms, 0406ms total)
T0F78 000:685 JLINK_IsHalted()  returns FALSE (0001ms, 0407ms total)
T0F78 000:690 JLINK_IsHalted()  returns FALSE (0000ms, 0406ms total)
T0F78 000:692 JLINK_IsHalted()  returns FALSE (0000ms, 0406ms total)
T0F78 000:694 JLINK_IsHalted()  returns FALSE (0000ms, 0406ms total)
T0F78 000:696 JLINK_IsHalted()  returns FALSE (0000ms, 0406ms total)
T0F78 000:698 JLINK_IsHalted()  returns FALSE (0000ms, 0406ms total)
T0F78 000:700 JLINK_IsHalted()  returns FALSE (0000ms, 0406ms total)
T0F78 000:702 JLINK_IsHalted()  returns FALSE (0000ms, 0406ms total)
T0F78 000:704 JLINK_IsHalted()  returns FALSE (0000ms, 0406ms total)
T0F78 000:706 JLINK_IsHalted()  returns FALSE (0000ms, 0406ms total)
T0F78 000:708 JLINK_IsHalted()  returns FALSE (0000ms, 0406ms total)
T0F78 000:710 JLINK_IsHalted()  returns FALSE (0000ms, 0406ms total)
T0F78 000:712 JLINK_IsHalted()  returns FALSE (0000ms, 0406ms total)
T0F78 000:714 JLINK_IsHalted()  returns FALSE (0000ms, 0406ms total)
T0F78 000:716 JLINK_IsHalted()  returns FALSE (0000ms, 0406ms total)
T0F78 000:718 JLINK_IsHalted() -- CPU_ReadMem(2 bytes @ 0x20000000)  returns TRUE (0004ms, 0410ms total)
T0F78 000:722 JLINK_ReadReg(R15 (PC))  returns 0x20000000 (0000ms, 0406ms total)
T0F78 000:722 JLINK_ClrBPEx(BPHandle = 0x0000000F)  returns 0x00 (0000ms, 0406ms total)
T0F78 000:722 JLINK_ReadReg(R0)  returns 0x00000000 (0001ms, 0407ms total)
T0F78 000:723 JLINK_WriteMem(0x20000164, 0x029C Bytes, ...) - Data: 60 1E 82 B2 39 46 30 46 00 F0 C2 FB 4F F0 00 08 ... -- CPU_WriteMem(668 bytes @ 0x20000164)  returns 0x29C (0007ms, 0414ms total)
T0F78 000:730 JLINK_WriteMem(0x20000400, 0x0164 Bytes, ...) - Data: D4 70 09 EB 60 00 40 1E 82 B2 0A EB 04 00 40 1E ... -- CPU_WriteMem(356 bytes @ 0x20000400)  returns 0x164 (0004ms, 0418ms total)
T0F78 000:734 JLINK_WriteReg(R0, 0x08000400)  returns 0x00 (0000ms, 0418ms total)
T0F78 000:734 JLINK_WriteReg(R1, 0x00000400)  returns 0x00 (0000ms, 0418ms total)
T0F78 000:734 JLINK_WriteReg(R2, 0x20000164)  returns 0x00 (0000ms, 0418ms total)
T0F78 000:734 JLINK_WriteReg(R3, 0x00000000)  returns 0x00 (0000ms, 0418ms total)
T0F78 000:734 JLINK_WriteReg(R4, 0x00000000)  returns 0x00 (0000ms, 0418ms total)
T0F78 000:734 JLINK_WriteReg(R5, 0x00000000)  returns 0x00 (0000ms, 0418ms total)
T0F78 000:734 JLINK_WriteReg(R6, 0x00000000)  returns 0x00 (0000ms, 0418ms total)
T0F78 000:734 JLINK_WriteReg(R7, 0x00000000)  returns 0x00 (0000ms, 0418ms total)
T0F78 000:734 JLINK_WriteReg(R8, 0x00000000)  returns 0x00 (0000ms, 0418ms total)
T0F78 000:734 JLINK_WriteReg(R9, 0x20000160)  returns 0x00 (0000ms, 0418ms total)
T0F78 000:734 JLINK_WriteReg(R10, 0x00000000)  returns 0x00 (0000ms, 0418ms total)
T0F78 000:734 JLINK_WriteReg(R11, 0x00000000)  returns 0x00 (0001ms, 0419ms total)
T0F78 000:735 JLINK_WriteReg(R12, 0x00000000)  returns 0x00 (0000ms, 0419ms total)
T0F78 000:735 JLINK_WriteReg(R13 (SP), 0x20001000)  returns 0x00 (0000ms, 0419ms total)
T0F78 000:735 JLINK_WriteReg(R14, 0x20000001)  returns 0x00 (0000ms, 0419ms total)
T0F78 000:735 JLINK_WriteReg(R15 (PC), 0x200000F4)  returns 0x00 (0000ms, 0419ms total)
T0F78 000:735 JLINK_WriteReg(XPSR, 0x01000000)  returns 0x00 (0000ms, 0419ms total)
T0F78 000:735 JLINK_WriteReg(MSP, 0x20001000)  returns 0x00 (0000ms, 0419ms total)
T0F78 000:735 JLINK_WriteReg(PSP, 0x20001000)  returns 0x00 (0000ms, 0419ms total)
T0F78 000:735 JLINK_WriteReg(CFBP, 0x00000000)  returns 0x00 (0000ms, 0419ms total)
T0F78 000:735 JLINK_SetBPEx(Addr = 0x20000000, Type = 0xFFFFFFF2)  returns 0x00000010 (0000ms, 0419ms total)
T0F78 000:735 JLINK_Go() (0002ms, 0421ms total)
T0F78 000:737 JLINK_IsHalted()  returns FALSE (0001ms, 0422ms total)
T0F78 000:741 JLINK_IsHalted()  returns FALSE (0000ms, 0421ms total)
T0F78 000:743 JLINK_IsHalted()  returns FALSE (0000ms, 0421ms total)
T0F78 000:745 JLINK_IsHalted()  returns FALSE (0000ms, 0421ms total)
T0F78 000:747 JLINK_IsHalted()  returns FALSE (0000ms, 0421ms total)
T0F78 000:749 JLINK_IsHalted()  returns FALSE (0000ms, 0421ms total)
T0F78 000:751 JLINK_IsHalted()  returns FALSE (0000ms, 0421ms total)
T0F78 000:753 JLINK_IsHalted()  returns FALSE (0000ms, 0421ms total)
T0F78 000:755 JLINK_IsHalted()  returns FALSE (0000ms, 0421ms total)
T0F78 000:757 JLINK_IsHalted()  returns FALSE (0000ms, 0421ms total)
T0F78 000:759 JLINK_IsHalted()  returns FALSE (0000ms, 0421ms total)
T0F78 000:761 JLINK_IsHalted()  returns FALSE (0000ms, 0421ms total)
T0F78 000:763 JLINK_IsHalted()  returns FALSE (0000ms, 0421ms total)
T0F78 000:765 JLINK_IsHalted()  returns FALSE (0000ms, 0421ms total)
T0F78 000:767 JLINK_IsHalted()  returns FALSE (0000ms, 0421ms total)
T0F78 000:769 JLINK_IsHalted() -- CPU_ReadMem(2 bytes @ 0x20000000)  returns TRUE (0004ms, 0425ms total)
T0F78 000:773 JLINK_ReadReg(R15 (PC))  returns 0x20000000 (0000ms, 0421ms total)
T0F78 000:773 JLINK_ClrBPEx(BPHandle = 0x00000010)  returns 0x00 (0000ms, 0421ms total)
T0F78 000:773 JLINK_ReadReg(R0)  returns 0x00000000 (0001ms, 0422ms total)
T0F78 000:774 JLINK_WriteMem(0x20000164, 0x029C Bytes, ...) - Data: 01 FB 05 71 88 B2 08 49 0B 88 04 49 0A 88 04 99 ... -- CPU_WriteMem(668 bytes @ 0x20000164)  returns 0x29C (0007ms, 0429ms total)
T0F78 000:781 JLINK_WriteMem(0x20000400, 0x0164 Bytes, ...) - Data: 50 F8 02 21 C4 48 10 38 02 F0 4B F8 01 21 88 03 ... -- CPU_WriteMem(356 bytes @ 0x20000400)  returns 0x164 (0004ms, 0433ms total)
T0F78 000:785 JLINK_WriteReg(R0, 0x08000800)  returns 0x00 (0000ms, 0433ms total)
T0F78 000:785 JLINK_WriteReg(R1, 0x00000400)  returns 0x00 (0000ms, 0433ms total)
T0F78 000:785 JLINK_WriteReg(R2, 0x20000164)  returns 0x00 (0000ms, 0433ms total)
T0F78 000:785 JLINK_WriteReg(R3, 0x00000000)  returns 0x00 (0000ms, 0433ms total)
T0F78 000:785 JLINK_WriteReg(R4, 0x00000000)  returns 0x00 (0000ms, 0433ms total)
T0F78 000:785 JLINK_WriteReg(R5, 0x00000000)  returns 0x00 (0000ms, 0433ms total)
T0F78 000:785 JLINK_WriteReg(R6, 0x00000000)  returns 0x00 (0000ms, 0433ms total)
T0F78 000:785 JLINK_WriteReg(R7, 0x00000000)  returns 0x00 (0001ms, 0434ms total)
T0F78 000:786 JLINK_WriteReg(R8, 0x00000000)  returns 0x00 (0000ms, 0434ms total)
T0F78 000:786 JLINK_WriteReg(R9, 0x20000160)  returns 0x00 (0000ms, 0434ms total)
T0F78 000:786 JLINK_WriteReg(R10, 0x00000000)  returns 0x00 (0000ms, 0434ms total)
T0F78 000:786 JLINK_WriteReg(R11, 0x00000000)  returns 0x00 (0000ms, 0434ms total)
T0F78 000:786 JLINK_WriteReg(R12, 0x00000000)  returns 0x00 (0000ms, 0434ms total)
T0F78 000:786 JLINK_WriteReg(R13 (SP), 0x20001000)  returns 0x00 (0000ms, 0434ms total)
T0F78 000:786 JLINK_WriteReg(R14, 0x20000001)  returns 0x00 (0000ms, 0434ms total)
T0F78 000:786 JLINK_WriteReg(R15 (PC), 0x200000F4)  returns 0x00 (0000ms, 0434ms total)
T0F78 000:786 JLINK_WriteReg(XPSR, 0x01000000)  returns 0x00 (0000ms, 0434ms total)
T0F78 000:786 JLINK_WriteReg(MSP, 0x20001000)  returns 0x00 (0000ms, 0434ms total)
T0F78 000:786 JLINK_WriteReg(PSP, 0x20001000)  returns 0x00 (0000ms, 0434ms total)
T0F78 000:786 JLINK_WriteReg(CFBP, 0x00000000)  returns 0x00 (0000ms, 0434ms total)
T0F78 000:786 JLINK_SetBPEx(Addr = 0x20000000, Type = 0xFFFFFFF2)  returns 0x00000011 (0000ms, 0434ms total)
T0F78 000:786 JLINK_Go() (0002ms, 0436ms total)
T0F78 000:788 JLINK_IsHalted()  returns FALSE (0000ms, 0436ms total)
T0F78 000:791 JLINK_IsHalted()  returns FALSE (0000ms, 0436ms total)
T0F78 000:793 JLINK_IsHalted()  returns FALSE (0000ms, 0436ms total)
T0F78 000:795 JLINK_IsHalted()  returns FALSE (0000ms, 0436ms total)
T0F78 000:797 JLINK_IsHalted()  returns FALSE (0000ms, 0436ms total)
T0F78 000:799 JLINK_IsHalted()  returns FALSE (0000ms, 0436ms total)
T0F78 000:801 JLINK_IsHalted()  returns FALSE (0000ms, 0436ms total)
T0F78 000:803 JLINK_IsHalted()  returns FALSE (0000ms, 0436ms total)
T0F78 000:805 JLINK_IsHalted()  returns FALSE (0000ms, 0436ms total)
T0F78 000:807 JLINK_IsHalted()  returns FALSE (0000ms, 0436ms total)
T0F78 000:809 JLINK_IsHalted()  returns FALSE (0000ms, 0436ms total)
T0F78 000:811 JLINK_IsHalted()  returns FALSE (0000ms, 0436ms total)
T0F78 000:813 JLINK_IsHalted()  returns FALSE (0000ms, 0436ms total)
T0F78 000:815 JLINK_IsHalted()  returns FALSE (0000ms, 0436ms total)
T0F78 000:817 JLINK_IsHalted()  returns FALSE (0000ms, 0436ms total)
